T22A4 000:004.384   SEGGER J-Link V9.14a Log File
T22A4 000:004.704   DLL Compiled: Jan 28 2026 17:11:52
T22A4 000:004.776   Logging started @ 2026-03-11 02:53
T22A4 000:004.837   Process: C:\Users\a5033228\.eclipse\com.renesas.platform_1435879475\DebugComp\RA\e2-server-gdb.exe
T22A4 000:004.917 - 4.909ms 
T22A4 000:004.996 JLINK_GetDLLVersion()
T22A4 000:005.061 - 0.065ms returns 91401
T22A4 000:016.375 JLINK_OpenEx(...)
T22A4 000:031.637   Firmware: J-Link OB-RA4M2 compiled Dec 10 2025 15:52:53
T22A4 000:033.164   Firmware: J-Link OB-RA4M2 compiled Dec 10 2025 15:52:53
T22A4 000:051.694   Hardware: V1.00
T22A4 000:051.854   S/N: 1084715269
T22A4 000:051.916   OEM: SEGGER
T22A4 000:051.983   Feature(s): None
T22A4 000:055.852   Bootloader: 2021 May 14
T22A4 000:058.552   USB speed mode: Full speed (12 MBit/s)
T22A4 000:059.603   TELNET listener socket opened on port 19021
T22A4 000:060.368   WEBSRV WEBSRV_Init(): Starting webserver thread(s)
T22A4 000:060.938   WEBSRV Webserver running on local port 19080
T22A4 000:061.577   Looking for J-Link GUI Server exe at: C:\Users\a5033228\.eclipse\com.renesas.platform_1435879475\DebugComp\RA\ARM\Segger_v9.14.1\JLinkGUIServer.exe
T22A4 000:062.145   Looking for J-Link GUI Server exe at: \JLinkGUIServer.exe
T22A4 000:368.706   Failed to connect to J-Link GUI Server.
T22A4 000:368.925 - 352.534ms returns "O.K."
T22A4 000:369.563 JLINK_TIF_Select(JLINKARM_TIF_SWD)
T22A4 000:370.677 - 1.112ms returns 0x00
T22A4 000:370.841 JLINK_ClrRESET()
T22A4 000:371.429 - 0.588ms 
T22A4 000:423.376 JLINK_SetSpeed(1500)
T22A4 000:423.713 - 0.342ms 
T22A4 000:423.785 JLINK_CORESIGHT_Configure(PerformTIFInit=0)
T22A4 000:424.288 - 0.506ms returns 0
T22A4 000:424.350 JLINK_CORESIGHT_ReadAPDPReg(DP reg 0x00)
T22A4 000:425.044   Value=0x6BA02477
T22A4 000:425.170 - 0.821ms returns 0
T22A4 000:425.202 JLINK_CORESIGHT_WriteAPDPReg(DP reg 0x00, 0x0000001F)
T22A4 000:425.573 - 0.371ms returns 0
T22A4 000:425.627 JLINK_CORESIGHT_ReadAPDPReg(DP reg 0x00)
T22A4 000:426.039   Value=0x6BA02477
T22A4 000:426.096 - 0.469ms returns 0
T22A4 000:426.124 JLINK_CORESIGHT_WriteAPDPReg(DP reg 0x02, 0x00000000)
T22A4 000:426.570 - 0.445ms returns 0
T22A4 000:426.623 JLINK_CORESIGHT_WriteAPDPReg(DP reg 0x01, 0x50000000)
T22A4 000:427.008 - 0.385ms returns 0
T22A4 000:427.061 JLINK_CORESIGHT_ReadAPDPReg(DP reg 0x01)
T22A4 000:427.447   Value=0xF0000040
T22A4 000:427.505 - 0.444ms returns 0
T22A4 000:427.531 JLINK_CORESIGHT_WriteAPDPReg(DP reg 0x00, 0x0000001F)
T22A4 000:427.950 - 0.419ms returns 0
T22A4 000:428.001 JLINK_CORESIGHT_ReadAPDPReg(DP reg 0x00)
T22A4 000:428.313   Value=0x6BA02477
T22A4 000:428.411 - 0.409ms returns 0
T22A4 000:428.448 JLINK_CORESIGHT_WriteAPDPReg(DP reg 0x01, 0x54000000)
T22A4 000:428.878 - 0.429ms returns 0
T22A4 000:428.929 JLINK_CORESIGHT_WriteAPDPReg(DP reg 0x01, 0x50000F00)
T22A4 000:429.257 - 0.327ms returns 0
T22A4 000:429.301 JLINK_CORESIGHT_WriteAPDPReg(DP reg 0x02, 0x01000000)
T22A4 000:429.736 - 0.434ms returns 0
T22A4 000:429.784 JLINK_CORESIGHT_WriteAPDPReg(AP reg 0x00, 0x80000002)
T22A4 000:430.178 - 0.394ms returns 0
T22A4 000:430.223 JLINK_CORESIGHT_WriteAPDPReg(AP reg 0x01, 0x80011100)
T22A4 000:430.566 - 0.343ms returns 0
T22A4 000:430.611 JLINK_CORESIGHT_WriteAPDPReg(AP reg 0x03, 0x000000A5)
T22A4 000:430.932 - 0.321ms returns 0
T22A4 000:430.976 JLINK_CORESIGHT_WriteAPDPReg(AP reg 0x00, 0x80000002)
T22A4 000:431.298 - 0.321ms returns 0
T22A4 000:431.345 JLINK_CORESIGHT_WriteAPDPReg(AP reg 0x01, 0x80011100)
T22A4 000:431.866 - 0.521ms returns 0
T22A4 000:431.913 JLINK_CORESIGHT_ReadAPDPReg(AP reg 0x03)
T22A4 000:432.414   Value=0x000000A5
T22A4 000:432.469 - 0.556ms returns 0
T22A4 000:432.493 JLINK_ClrTMS()
T22A4 000:432.647 - 0.153ms 
T22A4 000:437.814 JLINK_SetTCK()
T22A4 000:438.187 - 0.372ms returns 0
T22A4 000:443.772 JLINK_SetRESET()
T22A4 000:443.977 - 0.204ms 
T22A4 000:644.403 JLINK_CORESIGHT_WriteAPDPReg(AP reg 0x00, 0x80000002)
T22A4 000:644.879 - 0.475ms returns 0
T22A4 000:644.931 JLINK_CORESIGHT_WriteAPDPReg(AP reg 0x01, 0x80011100)
T22A4 000:645.400 - 0.468ms returns 0
T22A4 000:645.451 JLINK_CORESIGHT_ReadAPDPReg(AP reg 0x03)
T22A4 000:646.035   Value=0x00000000
T22A4 000:646.088 - 0.636ms returns 0
T22A4 000:646.112 JLINK_CORESIGHT_WriteAPDPReg(AP reg 0x00, 0x80000002)
T22A4 000:646.586 - 0.474ms returns 0
T22A4 000:646.630 JLINK_CORESIGHT_WriteAPDPReg(AP reg 0x01, 0x80011140)
T22A4 000:647.066 - 0.436ms returns 0
T22A4 000:647.115 JLINK_CORESIGHT_ReadAPDPReg(AP reg 0x03)
T22A4 000:647.590   Value=0x00000002
T22A4 000:647.642 - 0.526ms returns 0
T22A4 000:647.667 JLINK_CORESIGHT_WriteAPDPReg(AP reg 0x00, 0x80000002)
T22A4 000:648.125 - 0.458ms returns 0
T22A4 000:648.170 JLINK_CORESIGHT_WriteAPDPReg(AP reg 0x01, 0x80011120)
T22A4 000:648.577 - 0.400ms returns 0
T22A4 000:648.634 JLINK_CORESIGHT_WriteAPDPReg(AP reg 0x03, 0x00000055)
T22A4 000:649.050 - 0.415ms returns 0
T22A4 000:649.097 JLINK_CORESIGHT_WriteAPDPReg(AP reg 0x00, 0x80000002)
T22A4 000:649.495 - 0.398ms returns 0
T22A4 000:649.539 JLINK_CORESIGHT_WriteAPDPReg(AP reg 0x01, 0x80011140)
T22A4 000:649.908 - 0.368ms returns 0
T22A4 000:649.963 JLINK_CORESIGHT_ReadAPDPReg(AP reg 0x03)
T22A4 000:650.355   Value=0x00000002
T22A4 000:650.422 - 0.458ms returns 0
T22A4 000:650.456 JLINK_CORESIGHT_ReadAPDPReg(AP reg 0x03)
T22A4 000:650.893   Value=0x00000002
T22A4 000:650.951 - 0.494ms returns 0
T22A4 000:650.977 JLINK_CORESIGHT_ReadAPDPReg(AP reg 0x03)
T22A4 000:651.378   Value=0x00000002
T22A4 000:651.436 - 0.459ms returns 0
T22A4 000:651.469 JLINK_CORESIGHT_ReadAPDPReg(AP reg 0x03)
T22A4 000:651.883   Value=0x00000002
T22A4 000:651.957 - 0.488ms returns 0
T22A4 000:651.992 JLINK_CORESIGHT_ReadAPDPReg(AP reg 0x03)
T22A4 000:652.357   Value=0x00000002
T22A4 000:652.422 - 0.430ms returns 0
T22A4 000:652.459 JLINK_CORESIGHT_ReadAPDPReg(AP reg 0x03)
T22A4 000:652.932   Value=0x00000002
T22A4 000:652.990 - 0.530ms returns 0
T22A4 000:653.021 JLINK_CORESIGHT_ReadAPDPReg(AP reg 0x03)
T22A4 000:653.510   Value=0x00000002
T22A4 000:653.564 - 0.543ms returns 0
T22A4 000:653.591 JLINK_CORESIGHT_ReadAPDPReg(AP reg 0x03)
T22A4 000:654.115   Value=0x00000002
T22A4 000:654.167 - 0.575ms returns 0
T22A4 000:654.199 JLINK_CORESIGHT_ReadAPDPReg(AP reg 0x03)
T22A4 000:654.707   Value=0x00000002
T22A4 000:654.761 - 0.561ms returns 0
T22A4 000:654.788 JLINK_CORESIGHT_ReadAPDPReg(AP reg 0x03)
T22A4 000:655.304   Value=0x00000002
T22A4 000:655.361 - 0.572ms returns 0
T22A4 000:655.388 JLINK_CORESIGHT_ReadAPDPReg(AP reg 0x03)
T22A4 000:655.810   Value=0x00000002
T22A4 000:655.863 - 0.474ms returns 0
T22A4 000:655.891 JLINK_CORESIGHT_ReadAPDPReg(AP reg 0x03)
T22A4 000:656.412   Value=0x00000002
T22A4 000:656.465 - 0.574ms returns 0
T22A4 000:656.492 JLINK_CORESIGHT_ReadAPDPReg(AP reg 0x03)
T22A4 000:657.007   Value=0x00000002
T22A4 000:657.057 - 0.565ms returns 0
T22A4 000:657.085 JLINK_CORESIGHT_ReadAPDPReg(AP reg 0x03)
T22A4 000:657.508   Value=0x00000002
T22A4 000:657.564 - 0.478ms returns 0
T22A4 000:657.595 JLINK_CORESIGHT_ReadAPDPReg(AP reg 0x03)
T22A4 000:657.938   Value=0x00000002
T22A4 000:657.992 - 0.396ms returns 0
T22A4 000:658.021 JLINK_CORESIGHT_ReadAPDPReg(AP reg 0x03)
T22A4 000:658.361   Value=0x00000002
T22A4 000:658.416 - 0.395ms returns 0
T22A4 000:658.446 JLINK_CORESIGHT_ReadAPDPReg(AP reg 0x03)
T22A4 000:658.801   Value=0x00000002
T22A4 000:658.855 - 0.408ms returns 0
T22A4 000:658.884 JLINK_CORESIGHT_ReadAPDPReg(AP reg 0x03)
T22A4 000:659.254   Value=0x00000002
T22A4 000:659.309 - 0.425ms returns 0
T22A4 000:659.340 JLINK_CORESIGHT_ReadAPDPReg(AP reg 0x03)
T22A4 000:659.691   Value=0x00000002
T22A4 000:659.747 - 0.406ms returns 0
T22A4 000:659.780 JLINK_CORESIGHT_ReadAPDPReg(AP reg 0x03)
T22A4 000:660.110   Value=0x00000002
T22A4 000:660.166 - 0.385ms returns 0
T22A4 000:660.195 JLINK_CORESIGHT_ReadAPDPReg(AP reg 0x03)
T22A4 000:660.510   Value=0x00000000
T22A4 000:660.566 - 0.370ms returns 0
T22A4 000:660.598 JLINK_CORESIGHT_WriteAPDPReg(AP reg 0x00, 0x80000002)
T22A4 000:660.887 - 0.288ms returns 0
T22A4 000:660.994 JLINK_CORESIGHT_WriteAPDPReg(AP reg 0x01, 0x80011130)
T22A4 000:661.284 - 0.290ms returns 0
T22A4 000:661.337 JLINK_CORESIGHT_ReadAPDPReg(AP reg 0x03)
T22A4 000:661.830   Value=0x000000C6
T22A4 000:661.888 - 0.551ms returns 0
T22A4 000:662.698 JLINK_CORESIGHT_WriteAPDPReg(AP reg 0x00, 0x80000002)
T22A4 000:663.023 - 0.325ms returns 0
T22A4 000:663.071 JLINK_CORESIGHT_WriteAPDPReg(AP reg 0x01, 0x80011140)
T22A4 000:663.339 - 0.267ms returns 0
T22A4 000:663.386 JLINK_CORESIGHT_ReadAPDPReg(AP reg 0x03)
T22A4 000:663.691   Value=0x00000002
T22A4 000:663.748 - 0.362ms returns 0
T22A4 000:663.773 JLINK_CORESIGHT_WriteAPDPReg(AP reg 0x00, 0x80000002)
T22A4 000:664.065 - 0.291ms returns 0
T22A4 000:664.112 JLINK_CORESIGHT_WriteAPDPReg(AP reg 0x01, 0x80011120)
T22A4 000:664.390 - 0.278ms returns 0
T22A4 000:664.438 JLINK_CORESIGHT_WriteAPDPReg(AP reg 0x03, 0x3A010001)
T22A4 000:664.720 - 0.282ms returns 0
T22A4 000:664.767 JLINK_CORESIGHT_WriteAPDPReg(AP reg 0x00, 0x80000002)
T22A4 000:665.046 - 0.278ms returns 0
T22A4 000:665.094 JLINK_CORESIGHT_WriteAPDPReg(AP reg 0x01, 0x80011140)
T22A4 000:665.370 - 0.276ms returns 0
T22A4 000:665.418 JLINK_CORESIGHT_ReadAPDPReg(AP reg 0x03)
T22A4 000:665.742   Value=0x00000002
T22A4 000:665.798 - 0.380ms returns 0
T22A4 000:665.827 JLINK_CORESIGHT_WriteAPDPReg(AP reg 0x00, 0x80000002)
T22A4 000:666.112 - 0.285ms returns 0
T22A4 000:666.160 JLINK_CORESIGHT_WriteAPDPReg(AP reg 0x01, 0x80011120)
T22A4 000:666.438 - 0.277ms returns 0
T22A4 000:666.484 JLINK_CORESIGHT_WriteAPDPReg(AP reg 0x03, 0x000003C5)
T22A4 000:666.764 - 0.279ms returns 0
T22A4 000:666.812 JLINK_CORESIGHT_WriteAPDPReg(AP reg 0x00, 0x80000002)
T22A4 000:667.069 - 0.257ms returns 0
T22A4 000:667.117 JLINK_CORESIGHT_WriteAPDPReg(AP reg 0x01, 0x80011140)
T22A4 000:667.358 - 0.241ms returns 0
T22A4 000:667.408 JLINK_CORESIGHT_ReadAPDPReg(AP reg 0x03)
T22A4 000:667.747   Value=0x00000002
T22A4 000:667.804 - 0.395ms returns 0
T22A4 000:667.831 JLINK_CORESIGHT_ReadAPDPReg(AP reg 0x03)
T22A4 000:668.124   Value=0x00000002
T22A4 000:668.166 - 0.336ms returns 0
T22A4 000:668.192 JLINK_CORESIGHT_ReadAPDPReg(AP reg 0x03)
T22A4 000:668.682   Value=0x00000002
T22A4 000:668.728 - 0.535ms returns 0
T22A4 000:668.753 JLINK_CORESIGHT_ReadAPDPReg(AP reg 0x03)
T22A4 000:669.048   Value=0x00000002
T22A4 000:669.085 - 0.332ms returns 0
T22A4 000:669.109 JLINK_CORESIGHT_ReadAPDPReg(AP reg 0x03)
T22A4 000:669.398   Value=0x00000002
T22A4 000:669.435 - 0.326ms returns 0
T22A4 000:669.459 JLINK_CORESIGHT_ReadAPDPReg(AP reg 0x03)
T22A4 000:669.725   Value=0x00000002
T22A4 000:669.760 - 0.301ms returns 0
T22A4 000:669.784 JLINK_CORESIGHT_ReadAPDPReg(AP reg 0x03)
T22A4 000:670.064   Value=0x00000000
T22A4 000:670.099 - 0.314ms returns 0
T22A4 000:670.124 JLINK_CORESIGHT_WriteAPDPReg(AP reg 0x00, 0x80000002)
T22A4 000:670.353 - 0.229ms returns 0
T22A4 000:670.380 JLINK_CORESIGHT_WriteAPDPReg(AP reg 0x01, 0x80011130)
T22A4 000:670.650 - 0.270ms returns 0
T22A4 000:670.677 JLINK_CORESIGHT_ReadAPDPReg(AP reg 0x03)
T22A4 000:670.971   Value=0x3A2A0081
T22A4 000:671.007 - 0.331ms returns 0
T22A4 000:671.031 JLINK_CORESIGHT_WriteAPDPReg(AP reg 0x00, 0x80000002)
T22A4 000:671.261 - 0.230ms returns 0
T22A4 000:671.287 JLINK_CORESIGHT_WriteAPDPReg(AP reg 0x01, 0x80011140)
T22A4 000:671.531 - 0.243ms returns 0
T22A4 000:671.558 JLINK_CORESIGHT_ReadAPDPReg(AP reg 0x03)
T22A4 000:671.845   Value=0x00000000
T22A4 000:671.883 - 0.325ms returns 0
T22A4 000:671.907 JLINK_CORESIGHT_WriteAPDPReg(AP reg 0x00, 0x80000002)
T22A4 000:672.112 - 0.204ms returns 0
T22A4 000:672.138 JLINK_CORESIGHT_WriteAPDPReg(AP reg 0x01, 0x80011130)
T22A4 000:672.371 - 0.233ms returns 0
T22A4 000:672.397 JLINK_CORESIGHT_ReadAPDPReg(AP reg 0x03)
T22A4 000:672.699   Value=0x808D5B00
T22A4 000:672.734 - 0.337ms returns 0
T22A4 000:672.758 JLINK_CORESIGHT_WriteAPDPReg(AP reg 0x00, 0x80000002)
T22A4 000:672.987 - 0.229ms returns 0
T22A4 000:673.014 JLINK_CORESIGHT_WriteAPDPReg(AP reg 0x01, 0x80011140)
T22A4 000:673.248 - 0.234ms returns 0
T22A4 000:673.278 JLINK_CORESIGHT_ReadAPDPReg(AP reg 0x03)
T22A4 000:673.677   Value=0x00000000
T22A4 000:673.713 - 0.435ms returns 0
T22A4 000:673.737 JLINK_CORESIGHT_WriteAPDPReg(AP reg 0x00, 0x80000002)
T22A4 000:673.985 - 0.247ms returns 0
T22A4 000:674.011 JLINK_CORESIGHT_WriteAPDPReg(AP reg 0x01, 0x80011130)
T22A4 000:674.246 - 0.235ms returns 0
T22A4 000:674.272 JLINK_CORESIGHT_ReadAPDPReg(AP reg 0x03)
T22A4 000:674.675   Value=0x0406070A
T22A4 000:674.710 - 0.438ms returns 0
T22A4 000:674.734 JLINK_CORESIGHT_WriteAPDPReg(AP reg 0x00, 0x80000002)
T22A4 000:674.987 - 0.253ms returns 0
T22A4 000:675.013 JLINK_CORESIGHT_WriteAPDPReg(AP reg 0x01, 0x80011140)
T22A4 000:675.247 - 0.234ms returns 0
T22A4 000:675.274 JLINK_CORESIGHT_ReadAPDPReg(AP reg 0x03)
T22A4 000:675.674   Value=0x00000000
T22A4 000:675.710 - 0.435ms returns 0
T22A4 000:675.734 JLINK_CORESIGHT_WriteAPDPReg(AP reg 0x00, 0x80000002)
T22A4 000:675.982 - 0.248ms returns 0
T22A4 000:676.008 JLINK_CORESIGHT_WriteAPDPReg(AP reg 0x01, 0x80011130)
T22A4 000:676.235 - 0.227ms returns 0
T22A4 000:676.263 JLINK_CORESIGHT_ReadAPDPReg(AP reg 0x03)
T22A4 000:676.548   Value=0x3254540B
T22A4 000:676.585 - 0.322ms returns 0
T22A4 000:676.609 JLINK_CORESIGHT_WriteAPDPReg(AP reg 0x00, 0x80000002)
T22A4 000:676.835 - 0.225ms returns 0
T22A4 000:676.861 JLINK_CORESIGHT_WriteAPDPReg(AP reg 0x01, 0x80011140)
T22A4 000:677.096 - 0.234ms returns 0
T22A4 000:677.124 JLINK_CORESIGHT_ReadAPDPReg(AP reg 0x03)
T22A4 000:677.399   Value=0x00000000
T22A4 000:677.435 - 0.311ms returns 0
T22A4 000:677.458 JLINK_CORESIGHT_WriteAPDPReg(AP reg 0x00, 0x80000002)
T22A4 000:677.675 - 0.216ms returns 0
T22A4 000:677.701 JLINK_CORESIGHT_WriteAPDPReg(AP reg 0x01, 0x80011130)
T22A4 000:677.921 - 0.220ms returns 0
T22A4 000:677.948 JLINK_CORESIGHT_ReadAPDPReg(AP reg 0x03)
T22A4 000:678.221   Value=0x54141559
T22A4 000:678.256 - 0.308ms returns 0
T22A4 000:678.279 JLINK_CORESIGHT_WriteAPDPReg(AP reg 0x00, 0x80000002)
T22A4 000:678.509 - 0.229ms returns 0
T22A4 000:678.534 JLINK_CORESIGHT_WriteAPDPReg(AP reg 0x01, 0x80011140)
T22A4 000:678.782 - 0.248ms returns 0
T22A4 000:678.812 JLINK_CORESIGHT_ReadAPDPReg(AP reg 0x03)
T22A4 000:679.102   Value=0x00000000
T22A4 000:679.143 - 0.331ms returns 0
T22A4 000:679.167 JLINK_CORESIGHT_WriteAPDPReg(AP reg 0x00, 0x80000002)
T22A4 000:679.392 - 0.225ms returns 0
T22A4 000:679.419 JLINK_CORESIGHT_WriteAPDPReg(AP reg 0x01, 0x80011130)
T22A4 000:679.649 - 0.230ms returns 0
T22A4 000:679.676 JLINK_CORESIGHT_ReadAPDPReg(AP reg 0x03)
T22A4 000:679.950   Value=0x34325736
T22A4 000:679.986 - 0.310ms returns 0
T22A4 000:680.009 JLINK_CORESIGHT_WriteAPDPReg(AP reg 0x00, 0x80000002)
T22A4 000:680.242 - 0.233ms returns 0
T22A4 000:680.268 JLINK_CORESIGHT_WriteAPDPReg(AP reg 0x01, 0x80011140)
T22A4 000:680.501 - 0.233ms returns 0
T22A4 000:680.528 JLINK_CORESIGHT_ReadAPDPReg(AP reg 0x03)
T22A4 000:680.833   Value=0x00000000
T22A4 000:680.868 - 0.340ms returns 0
T22A4 000:680.894 JLINK_CORESIGHT_WriteAPDPReg(AP reg 0x00, 0x80000002)
T22A4 000:681.124 - 0.230ms returns 0
T22A4 000:681.150 JLINK_CORESIGHT_WriteAPDPReg(AP reg 0x01, 0x80011130)
T22A4 000:681.386 - 0.235ms returns 0
T22A4 000:681.412 JLINK_CORESIGHT_ReadAPDPReg(AP reg 0x03)
T22A4 000:681.699   Value=0x5D0A2D30
T22A4 000:681.735 - 0.323ms returns 0
T22A4 000:681.758 JLINK_CORESIGHT_WriteAPDPReg(AP reg 0x00, 0x80000002)
T22A4 000:681.984 - 0.226ms returns 0
T22A4 000:682.010 JLINK_CORESIGHT_WriteAPDPReg(AP reg 0x01, 0x80011140)
T22A4 000:682.214 - 0.203ms returns 0
T22A4 000:682.241 JLINK_CORESIGHT_ReadAPDPReg(AP reg 0x03)
T22A4 000:682.520   Value=0x00000000
T22A4 000:682.556 - 0.315ms returns 0
T22A4 000:682.580 JLINK_CORESIGHT_WriteAPDPReg(AP reg 0x00, 0x80000002)
T22A4 000:682.812 - 0.232ms returns 0
T22A4 000:682.839 JLINK_CORESIGHT_WriteAPDPReg(AP reg 0x01, 0x80011130)
T22A4 000:683.071 - 0.231ms returns 0
T22A4 000:683.101 JLINK_CORESIGHT_ReadAPDPReg(AP reg 0x03)
T22A4 000:683.432   Value=0x4B375275
T22A4 000:683.471 - 0.370ms returns 0
T22A4 000:683.495 JLINK_CORESIGHT_WriteAPDPReg(AP reg 0x00, 0x80000002)
T22A4 000:683.726 - 0.231ms returns 0
T22A4 000:683.754 JLINK_CORESIGHT_WriteAPDPReg(AP reg 0x01, 0x80011140)
T22A4 000:683.989 - 0.234ms returns 0
T22A4 000:684.018 JLINK_CORESIGHT_ReadAPDPReg(AP reg 0x03)
T22A4 000:684.353   Value=0x00000000
T22A4 000:684.414 - 0.396ms returns 0
T22A4 000:684.450 JLINK_CORESIGHT_WriteAPDPReg(AP reg 0x00, 0x80000002)
T22A4 000:684.732 - 0.281ms returns 0
T22A4 000:684.796 JLINK_CORESIGHT_WriteAPDPReg(AP reg 0x01, 0x80011130)
T22A4 000:685.161 - 0.365ms returns 0
T22A4 000:685.208 JLINK_CORESIGHT_ReadAPDPReg(AP reg 0x03)
T22A4 000:685.496   Value=0x31503841
T22A4 000:685.535 - 0.327ms returns 0
T22A4 000:685.559 JLINK_CORESIGHT_WriteAPDPReg(AP reg 0x00, 0x80000002)
T22A4 000:685.934 - 0.372ms returns 0
T22A4 000:685.960 JLINK_CORESIGHT_WriteAPDPReg(AP reg 0x01, 0x80011140)
T22A4 000:686.197 - 0.236ms returns 0
T22A4 000:686.227 JLINK_CORESIGHT_ReadAPDPReg(AP reg 0x03)
T22A4 000:686.496   Value=0x00000000
T22A4 000:686.533 - 0.306ms returns 0
T22A4 000:686.557 JLINK_CORESIGHT_WriteAPDPReg(AP reg 0x00, 0x80000002)
T22A4 000:686.791 - 0.234ms returns 0
T22A4 000:686.817 JLINK_CORESIGHT_WriteAPDPReg(AP reg 0x01, 0x80011130)
T22A4 000:687.046 - 0.229ms returns 0
T22A4 000:687.072 JLINK_CORESIGHT_ReadAPDPReg(AP reg 0x03)
T22A4 000:687.346   Value=0x434C464B
T22A4 000:687.381 - 0.308ms returns 0
T22A4 000:687.409 JLINK_CORESIGHT_WriteAPDPReg(AP reg 0x00, 0x80000002)
T22A4 000:687.649 - 0.240ms returns 0
T22A4 000:687.682 JLINK_CORESIGHT_WriteAPDPReg(AP reg 0x01, 0x80011140)
T22A4 000:687.921 - 0.239ms returns 0
T22A4 000:687.950 JLINK_CORESIGHT_ReadAPDPReg(AP reg 0x03)
T22A4 000:688.221   Value=0x00000000
T22A4 000:688.256 - 0.306ms returns 0
T22A4 000:688.282 JLINK_CORESIGHT_WriteAPDPReg(AP reg 0x00, 0x80000002)
T22A4 000:688.512 - 0.229ms returns 0
T22A4 000:688.542 JLINK_CORESIGHT_WriteAPDPReg(AP reg 0x01, 0x80011130)
T22A4 000:688.782 - 0.239ms returns 0
T22A4 000:688.810 JLINK_CORESIGHT_ReadAPDPReg(AP reg 0x03)
T22A4 000:689.107   Value=0x20204341
T22A4 000:689.143 - 0.332ms returns 0
T22A4 000:689.170 JLINK_CORESIGHT_WriteAPDPReg(AP reg 0x00, 0x80000002)
T22A4 000:689.422 - 0.252ms returns 0
T22A4 000:689.450 JLINK_CORESIGHT_WriteAPDPReg(AP reg 0x01, 0x80011140)
T22A4 000:689.680 - 0.230ms returns 0
T22A4 000:689.709 JLINK_CORESIGHT_ReadAPDPReg(AP reg 0x03)
T22A4 000:689.997   Value=0x00000000
T22A4 000:690.037 - 0.327ms returns 0
T22A4 000:690.063 JLINK_CORESIGHT_WriteAPDPReg(AP reg 0x00, 0x80000002)
T22A4 000:690.430 - 0.367ms returns 0
T22A4 000:690.459 JLINK_CORESIGHT_WriteAPDPReg(AP reg 0x01, 0x80011130)
T22A4 000:690.700 - 0.240ms returns 0
T22A4 000:690.728 JLINK_CORESIGHT_ReadAPDPReg(AP reg 0x03)
T22A4 000:690.995   Value=0x00036020
T22A4 000:691.030 - 0.301ms returns 0
T22A4 000:691.796 JLINK_CORESIGHT_WriteAPDPReg(AP reg 0x00, 0x80000002)
T22A4 000:692.160 - 0.364ms returns 0
T22A4 000:692.192 JLINK_CORESIGHT_WriteAPDPReg(AP reg 0x01, 0x80011140)
T22A4 000:692.429 - 0.237ms returns 0
T22A4 000:692.459 JLINK_CORESIGHT_ReadAPDPReg(AP reg 0x03)
T22A4 000:692.749   Value=0x00000002
T22A4 000:692.786 - 0.327ms returns 0
T22A4 000:692.810 JLINK_CORESIGHT_WriteAPDPReg(AP reg 0x00, 0x80000002)
T22A4 000:693.157 - 0.346ms returns 0
T22A4 000:693.188 JLINK_CORESIGHT_WriteAPDPReg(AP reg 0x01, 0x80011120)
T22A4 000:693.395 - 0.207ms returns 0
T22A4 000:693.423 JLINK_CORESIGHT_WriteAPDPReg(AP reg 0x03, 0x39020001)
T22A4 000:693.653 - 0.230ms returns 0
T22A4 000:693.690 JLINK_CORESIGHT_WriteAPDPReg(AP reg 0x00, 0x80000002)
T22A4 000:693.982 - 0.291ms returns 0
T22A4 000:694.037 JLINK_CORESIGHT_WriteAPDPReg(AP reg 0x01, 0x80011140)
T22A4 000:694.276 - 0.239ms returns 0
T22A4 000:694.314 JLINK_CORESIGHT_ReadAPDPReg(AP reg 0x03)
T22A4 000:694.651   Value=0x00000002
T22A4 000:694.689 - 0.375ms returns 0
T22A4 000:694.713 JLINK_CORESIGHT_WriteAPDPReg(AP reg 0x00, 0x80000002)
T22A4 000:695.043 - 0.330ms returns 0
T22A4 000:695.074 JLINK_CORESIGHT_WriteAPDPReg(AP reg 0x01, 0x80011120)
T22A4 000:695.321 - 0.247ms returns 0
T22A4 000:695.352 JLINK_CORESIGHT_WriteAPDPReg(AP reg 0x03, 0x0003B312)
T22A4 000:695.571 - 0.219ms returns 0
T22A4 000:695.597 JLINK_CORESIGHT_WriteAPDPReg(AP reg 0x00, 0x80000002)
T22A4 000:695.821 - 0.223ms returns 0
T22A4 000:695.847 JLINK_CORESIGHT_WriteAPDPReg(AP reg 0x01, 0x80011140)
T22A4 000:696.071 - 0.224ms returns 0
T22A4 000:696.097 JLINK_CORESIGHT_ReadAPDPReg(AP reg 0x03)
T22A4 000:696.371   Value=0x00000000
T22A4 000:696.409 - 0.312ms returns 0
T22A4 000:696.434 JLINK_CORESIGHT_WriteAPDPReg(AP reg 0x00, 0x80000002)
T22A4 000:696.784 - 0.349ms returns 0
T22A4 000:696.834 JLINK_CORESIGHT_WriteAPDPReg(AP reg 0x01, 0x80011130)
T22A4 000:697.040 - 0.205ms returns 0
T22A4 000:697.066 JLINK_CORESIGHT_ReadAPDPReg(AP reg 0x03)
T22A4 000:697.354   Value=0xB90A0081
T22A4 000:697.390 - 0.324ms returns 0
T22A4 000:697.414 JLINK_CORESIGHT_WriteAPDPReg(AP reg 0x00, 0x80000002)
T22A4 000:697.649 - 0.235ms returns 0
T22A4 000:697.676 JLINK_CORESIGHT_WriteAPDPReg(AP reg 0x01, 0x80011140)
T22A4 000:697.921 - 0.244ms returns 0
T22A4 000:697.947 JLINK_CORESIGHT_ReadAPDPReg(AP reg 0x03)
T22A4 000:698.221   Value=0x00000000
T22A4 000:698.256 - 0.308ms returns 0
T22A4 000:698.279 JLINK_CORESIGHT_WriteAPDPReg(AP reg 0x00, 0x80000002)
T22A4 000:698.509 - 0.229ms returns 0
T22A4 000:698.534 JLINK_CORESIGHT_WriteAPDPReg(AP reg 0x01, 0x80011130)
T22A4 000:698.781 - 0.247ms returns 0
T22A4 000:698.809 JLINK_CORESIGHT_ReadAPDPReg(AP reg 0x03)
T22A4 000:699.096   Value=0xFFFFFFC0
T22A4 000:699.133 - 0.324ms returns 0
T22A4 000:699.157 JLINK_CORESIGHT_WriteAPDPReg(AP reg 0x00, 0x80000002)
T22A4 000:699.381 - 0.224ms returns 0
T22A4 000:699.407 JLINK_CORESIGHT_WriteAPDPReg(AP reg 0x01, 0x80011140)
T22A4 000:699.649 - 0.241ms returns 0
T22A4 000:699.675 JLINK_CORESIGHT_ReadAPDPReg(AP reg 0x03)
T22A4 000:699.985   Value=0x00000000
T22A4 000:700.044 - 0.368ms returns 0
T22A4 000:700.070 JLINK_CORESIGHT_WriteAPDPReg(AP reg 0x00, 0x80000002)
T22A4 000:700.338 - 0.267ms returns 0
T22A4 000:700.372 JLINK_CORESIGHT_WriteAPDPReg(AP reg 0x01, 0x80011130)
T22A4 000:700.654 - 0.282ms returns 0
T22A4 000:700.698 JLINK_CORESIGHT_ReadAPDPReg(AP reg 0x03)
T22A4 000:701.002   Value=0xFFFFFFFF
T22A4 000:701.051 - 0.352ms returns 0
T22A4 000:701.076 JLINK_CORESIGHT_WriteAPDPReg(AP reg 0x00, 0x80000002)
T22A4 000:701.407 - 0.331ms returns 0
T22A4 000:701.435 JLINK_CORESIGHT_WriteAPDPReg(AP reg 0x01, 0x80011140)
T22A4 000:701.677 - 0.242ms returns 0
T22A4 000:701.712 JLINK_CORESIGHT_ReadAPDPReg(AP reg 0x03)
T22A4 000:702.001   Value=0x00000000
T22A4 000:702.039 - 0.326ms returns 0
T22A4 000:702.065 JLINK_CORESIGHT_WriteAPDPReg(AP reg 0x00, 0x80000002)
T22A4 000:702.430 - 0.364ms returns 0
T22A4 000:702.458 JLINK_CORESIGHT_WriteAPDPReg(AP reg 0x01, 0x80011130)
T22A4 000:702.700 - 0.242ms returns 0
T22A4 000:702.728 JLINK_CORESIGHT_ReadAPDPReg(AP reg 0x03)
T22A4 000:703.021   Value=0x000385FF
T22A4 000:703.056 - 0.328ms returns 0
T22A4 000:703.155 JLINK_CORESIGHT_WriteAPDPReg(AP reg 0x00, 0x80000002)
T22A4 000:703.422 - 0.267ms returns 0
T22A4 000:703.450 JLINK_CORESIGHT_WriteAPDPReg(AP reg 0x01, 0x80011140)
T22A4 000:703.674 - 0.225ms returns 0
T22A4 000:703.703 JLINK_CORESIGHT_ReadAPDPReg(AP reg 0x03)
T22A4 000:703.995   Value=0x00000002
T22A4 000:704.033 - 0.330ms returns 0
T22A4 000:704.057 JLINK_CORESIGHT_WriteAPDPReg(AP reg 0x00, 0x80000002)
T22A4 000:704.432 - 0.375ms returns 0
T22A4 000:704.459 JLINK_CORESIGHT_WriteAPDPReg(AP reg 0x01, 0x80011120)
T22A4 000:704.675 - 0.215ms returns 0
T22A4 000:704.700 JLINK_CORESIGHT_WriteAPDPReg(AP reg 0x03, 0x2C010001)
T22A4 000:704.946 - 0.245ms returns 0
T22A4 000:704.972 JLINK_CORESIGHT_WriteAPDPReg(AP reg 0x00, 0x80000002)
T22A4 000:705.206 - 0.233ms returns 0
T22A4 000:705.232 JLINK_CORESIGHT_WriteAPDPReg(AP reg 0x01, 0x80011140)
T22A4 000:705.471 - 0.238ms returns 0
T22A4 000:705.498 JLINK_CORESIGHT_ReadAPDPReg(AP reg 0x03)
T22A4 000:705.852   Value=0x00000002
T22A4 000:705.891 - 0.392ms returns 0
T22A4 000:705.915 JLINK_CORESIGHT_WriteAPDPReg(AP reg 0x00, 0x80000002)
T22A4 000:706.168 - 0.252ms returns 0
T22A4 000:706.231 JLINK_CORESIGHT_WriteAPDPReg(AP reg 0x01, 0x80011120)
T22A4 000:706.488 - 0.256ms returns 0
T22A4 000:706.534 JLINK_CORESIGHT_WriteAPDPReg(AP reg 0x03, 0x000003D3)
T22A4 000:706.783 - 0.251ms returns 0
T22A4 000:706.813 JLINK_CORESIGHT_WriteAPDPReg(AP reg 0x00, 0x80000002)
T22A4 000:707.025 - 0.211ms returns 0
T22A4 000:707.058 JLINK_CORESIGHT_WriteAPDPReg(AP reg 0x01, 0x80011140)
T22A4 000:707.307 - 0.249ms returns 0
T22A4 000:707.358 JLINK_CORESIGHT_ReadAPDPReg(AP reg 0x03)
T22A4 000:707.682   Value=0x00000002
T22A4 000:707.730 - 0.372ms returns 0
T22A4 000:707.758 JLINK_CORESIGHT_ReadAPDPReg(AP reg 0x03)
T22A4 000:708.083   Value=0x00000002
T22A4 000:708.126 - 0.368ms returns 0
T22A4 000:708.150 JLINK_CORESIGHT_ReadAPDPReg(AP reg 0x03)
T22A4 000:708.454   Value=0x00000002
T22A4 000:708.490 - 0.339ms returns 0
T22A4 000:708.516 JLINK_CORESIGHT_ReadAPDPReg(AP reg 0x03)
T22A4 000:708.827   Value=0x00000002
T22A4 000:708.866 - 0.350ms returns 0
T22A4 000:708.889 JLINK_CORESIGHT_ReadAPDPReg(AP reg 0x03)
T22A4 000:709.174   Value=0x00000002
T22A4 000:709.210 - 0.320ms returns 0
T22A4 000:709.235 JLINK_CORESIGHT_ReadAPDPReg(AP reg 0x03)
T22A4 000:709.519   Value=0x00000002
T22A4 000:709.556 - 0.321ms returns 0
T22A4 000:709.580 JLINK_CORESIGHT_ReadAPDPReg(AP reg 0x03)
T22A4 000:709.856   Value=0x00000002
T22A4 000:709.895 - 0.314ms returns 0
T22A4 000:709.919 JLINK_CORESIGHT_ReadAPDPReg(AP reg 0x03)
T22A4 000:710.198   Value=0x00000002
T22A4 000:710.238 - 0.318ms returns 0
T22A4 000:710.264 JLINK_CORESIGHT_ReadAPDPReg(AP reg 0x03)
T22A4 000:710.557   Value=0x00000002
T22A4 000:710.650 - 0.385ms returns 0
T22A4 000:710.701 JLINK_CORESIGHT_ReadAPDPReg(AP reg 0x03)
T22A4 000:711.065   Value=0x00000000
T22A4 000:711.111 - 0.409ms returns 0
T22A4 000:711.136 JLINK_CORESIGHT_WriteAPDPReg(AP reg 0x00, 0x80000002)
T22A4 000:711.382 - 0.246ms returns 0
T22A4 000:711.410 JLINK_CORESIGHT_WriteAPDPReg(AP reg 0x01, 0x80011130)
T22A4 000:711.650 - 0.240ms returns 0
T22A4 000:711.676 JLINK_CORESIGHT_ReadAPDPReg(AP reg 0x03)
T22A4 000:711.946   Value=0x2C020081
T22A4 000:711.983 - 0.306ms returns 0
T22A4 000:712.008 JLINK_CORESIGHT_WriteAPDPReg(AP reg 0x00, 0x80000002)
T22A4 000:712.238 - 0.230ms returns 0
T22A4 000:712.267 JLINK_CORESIGHT_WriteAPDPReg(AP reg 0x01, 0x80011140)
T22A4 000:712.501 - 0.234ms returns 0
T22A4 000:712.529 JLINK_CORESIGHT_ReadAPDPReg(AP reg 0x03)
T22A4 000:712.847   Value=0x00000000
T22A4 000:712.883 - 0.354ms returns 0
T22A4 000:712.907 JLINK_CORESIGHT_WriteAPDPReg(AP reg 0x00, 0x80000002)
T22A4 000:713.162 - 0.254ms returns 0
T22A4 000:713.215 JLINK_CORESIGHT_WriteAPDPReg(AP reg 0x01, 0x80011130)
T22A4 000:713.457 - 0.242ms returns 0
T22A4 000:713.495 JLINK_CORESIGHT_ReadAPDPReg(AP reg 0x03)
T22A4 000:713.782   Value=0x0003CE04
T22A4 000:713.820 - 0.324ms returns 0
T22A4 000:713.851 JLINK_CORESIGHT_WriteAPDPReg(AP reg 0x00, 0x80000002)
T22A4 000:714.237 - 0.386ms returns 0
T22A4 000:714.267 JLINK_CORESIGHT_WriteAPDPReg(AP reg 0x01, 0x80011140)
T22A4 000:714.533 - 0.266ms returns 0
T22A4 000:714.560 JLINK_CORESIGHT_ReadAPDPReg(AP reg 0x03)
T22A4 000:714.841   Value=0x00000002
T22A4 000:714.879 - 0.319ms returns 0
T22A4 000:714.904 JLINK_CORESIGHT_WriteAPDPReg(AP reg 0x00, 0x80000002)
T22A4 000:715.138 - 0.234ms returns 0
T22A4 000:715.167 JLINK_CORESIGHT_WriteAPDPReg(AP reg 0x01, 0x80011120)
T22A4 000:715.374 - 0.207ms returns 0
T22A4 000:715.401 JLINK_CORESIGHT_WriteAPDPReg(AP reg 0x03, 0x73010001)
T22A4 000:715.649 - 0.247ms returns 0
T22A4 000:715.675 JLINK_CORESIGHT_WriteAPDPReg(AP reg 0x00, 0x80000002)
T22A4 000:715.938 - 0.262ms returns 0
T22A4 000:715.994 JLINK_CORESIGHT_WriteAPDPReg(AP reg 0x01, 0x80011140)
T22A4 000:716.240 - 0.246ms returns 0
T22A4 000:716.289 JLINK_CORESIGHT_ReadAPDPReg(AP reg 0x03)
T22A4 000:716.573   Value=0x00000002
T22A4 000:716.613 - 0.323ms returns 0
T22A4 000:716.638 JLINK_CORESIGHT_WriteAPDPReg(AP reg 0x00, 0x80000002)
T22A4 000:716.874 - 0.236ms returns 0
T22A4 000:716.919 JLINK_CORESIGHT_WriteAPDPReg(AP reg 0x01, 0x80011120)
T22A4 000:717.325 - 0.405ms returns 0
T22A4 000:717.361 JLINK_CORESIGHT_WriteAPDPReg(AP reg 0x03, 0x0000038C)
T22A4 000:717.668 - 0.306ms returns 0
T22A4 000:717.705 JLINK_CORESIGHT_WriteAPDPReg(AP reg 0x00, 0x80000002)
T22A4 000:717.940 - 0.235ms returns 0
T22A4 000:717.971 JLINK_CORESIGHT_WriteAPDPReg(AP reg 0x01, 0x80011140)
T22A4 000:718.199 - 0.228ms returns 0
T22A4 000:718.232 JLINK_CORESIGHT_ReadAPDPReg(AP reg 0x03)
T22A4 000:718.657   Value=0x00000000
T22A4 000:718.707 - 0.474ms returns 0
T22A4 000:718.737 JLINK_CORESIGHT_WriteAPDPReg(AP reg 0x00, 0x80000002)
T22A4 000:718.977 - 0.240ms returns 0
T22A4 000:719.017 JLINK_CORESIGHT_WriteAPDPReg(AP reg 0x01, 0x80011130)
T22A4 000:719.250 - 0.233ms returns 0
T22A4 000:719.279 JLINK_CORESIGHT_ReadAPDPReg(AP reg 0x03)
T22A4 000:719.671   Value=0x73020081
T22A4 000:719.708 - 0.428ms returns 0
T22A4 000:720.433 JLINK_CORESIGHT_WriteAPDPReg(AP reg 0x00, 0x80000002)
T22A4 000:720.725 - 0.292ms returns 0
T22A4 000:720.753 JLINK_CORESIGHT_WriteAPDPReg(AP reg 0x01, 0x80011140)
T22A4 000:720.988 - 0.235ms returns 0
T22A4 000:721.015 JLINK_CORESIGHT_ReadAPDPReg(AP reg 0x03)
T22A4 000:721.296   Value=0x00000000
T22A4 000:721.332 - 0.316ms returns 0
T22A4 000:721.356 JLINK_CORESIGHT_WriteAPDPReg(AP reg 0x00, 0x80000002)
T22A4 000:721.650 - 0.293ms returns 0
T22A4 000:721.676 JLINK_CORESIGHT_WriteAPDPReg(AP reg 0x01, 0x80011130)
T22A4 000:721.908 - 0.231ms returns 0
T22A4 000:721.936 JLINK_CORESIGHT_ReadAPDPReg(AP reg 0x03)
T22A4 000:722.222   Value=0x00038902
T22A4 000:722.258 - 0.321ms returns 0
T22A4 000:722.283 JLINK_CORESIGHT_WriteAPDPReg(AP reg 0x00, 0x80000002)
T22A4 000:722.510 - 0.227ms returns 0
T22A4 000:722.537 JLINK_CORESIGHT_WriteAPDPReg(AP reg 0x01, 0x80011140)
T22A4 000:722.757 - 0.220ms returns 0
T22A4 000:722.785 JLINK_CORESIGHT_ReadAPDPReg(AP reg 0x03)
T22A4 000:723.071   Value=0x00000002
T22A4 000:723.109 - 0.324ms returns 0
T22A4 000:723.134 JLINK_CORESIGHT_WriteAPDPReg(AP reg 0x00, 0x80000002)
T22A4 000:723.382 - 0.248ms returns 0
T22A4 000:723.409 JLINK_CORESIGHT_WriteAPDPReg(AP reg 0x01, 0x80011120)
T22A4 000:723.650 - 0.241ms returns 0
T22A4 000:723.677 JLINK_CORESIGHT_WriteAPDPReg(AP reg 0x03, 0x75010001)
T22A4 000:723.896 - 0.219ms returns 0
T22A4 000:723.923 JLINK_CORESIGHT_WriteAPDPReg(AP reg 0x00, 0x80000002)
T22A4 000:724.153 - 0.230ms returns 0
T22A4 000:724.179 JLINK_CORESIGHT_WriteAPDPReg(AP reg 0x01, 0x80011140)
T22A4 000:724.421 - 0.242ms returns 0
T22A4 000:724.447 JLINK_CORESIGHT_ReadAPDPReg(AP reg 0x03)
T22A4 000:724.727   Value=0x00000002
T22A4 000:724.763 - 0.315ms returns 0
T22A4 000:724.786 JLINK_CORESIGHT_WriteAPDPReg(AP reg 0x00, 0x80000002)
T22A4 000:724.990 - 0.204ms returns 0
T22A4 000:725.016 JLINK_CORESIGHT_WriteAPDPReg(AP reg 0x01, 0x80011120)
T22A4 000:725.247 - 0.230ms returns 0
T22A4 000:725.274 JLINK_CORESIGHT_WriteAPDPReg(AP reg 0x03, 0x0000038A)
T22A4 000:725.533 - 0.259ms returns 0
T22A4 000:725.560 JLINK_CORESIGHT_WriteAPDPReg(AP reg 0x00, 0x80000002)
T22A4 000:725.795 - 0.235ms returns 0
T22A4 000:725.824 JLINK_CORESIGHT_WriteAPDPReg(AP reg 0x01, 0x80011140)
T22A4 000:726.046 - 0.221ms returns 0
T22A4 000:726.074 JLINK_CORESIGHT_ReadAPDPReg(AP reg 0x03)
T22A4 000:726.345   Value=0x00000002
T22A4 000:726.380 - 0.306ms returns 0
T22A4 000:726.404 JLINK_CORESIGHT_ReadAPDPReg(AP reg 0x03)
T22A4 000:726.675   Value=0x00000002
T22A4 000:726.710 - 0.306ms returns 0
T22A4 000:726.734 JLINK_CORESIGHT_ReadAPDPReg(AP reg 0x03)
T22A4 000:727.015   Value=0x00000002
T22A4 000:727.051 - 0.317ms returns 0
T22A4 000:727.078 JLINK_CORESIGHT_ReadAPDPReg(AP reg 0x03)
T22A4 000:727.368   Value=0x00000000
T22A4 000:727.404 - 0.325ms returns 0
T22A4 000:727.428 JLINK_CORESIGHT_WriteAPDPReg(AP reg 0x00, 0x80000002)
T22A4 000:727.783 - 0.354ms returns 0
T22A4 000:727.816 JLINK_CORESIGHT_WriteAPDPReg(AP reg 0x01, 0x80011130)
T22A4 000:728.054 - 0.238ms returns 0
T22A4 000:728.081 JLINK_CORESIGHT_ReadAPDPReg(AP reg 0x03)
T22A4 000:728.345   Value=0x75020081
T22A4 000:728.382 - 0.300ms returns 0
T22A4 000:728.405 JLINK_CORESIGHT_WriteAPDPReg(AP reg 0x00, 0x80000002)
T22A4 000:728.650 - 0.244ms returns 0
T22A4 000:728.677 JLINK_CORESIGHT_WriteAPDPReg(AP reg 0x01, 0x80011140)
T22A4 000:728.922 - 0.245ms returns 0
T22A4 000:728.950 JLINK_CORESIGHT_ReadAPDPReg(AP reg 0x03)
T22A4 000:729.226   Value=0x00000000
T22A4 000:729.261 - 0.310ms returns 0
T22A4 000:729.287 JLINK_CORESIGHT_WriteAPDPReg(AP reg 0x00, 0x80000002)
T22A4 000:729.521 - 0.234ms returns 0
T22A4 000:729.547 JLINK_CORESIGHT_WriteAPDPReg(AP reg 0x01, 0x80011130)
T22A4 000:729.781 - 0.234ms returns 0
T22A4 000:729.806 JLINK_CORESIGHT_ReadAPDPReg(AP reg 0x03)
T22A4 000:730.095   Value=0x00038702
T22A4 000:730.128 - 0.322ms returns 0
T22A4 000:730.158 JLINK_CORESIGHT_WriteAPDPReg(AP reg 0x00, 0x80000002)
T22A4 000:730.369 - 0.211ms returns 0
T22A4 000:730.397 JLINK_CORESIGHT_WriteAPDPReg(AP reg 0x01, 0x80011140)
T22A4 000:730.649 - 0.252ms returns 0
T22A4 000:730.676 JLINK_CORESIGHT_ReadAPDPReg(AP reg 0x03)
T22A4 000:730.970   Value=0x00000002
T22A4 000:731.005 - 0.329ms returns 0
T22A4 000:731.030 JLINK_CORESIGHT_WriteAPDPReg(AP reg 0x00, 0x80000002)
T22A4 000:731.285 - 0.255ms returns 0
T22A4 000:731.329 JLINK_CORESIGHT_WriteAPDPReg(AP reg 0x01, 0x80011120)
T22A4 000:731.654 - 0.325ms returns 0
T22A4 000:731.695 JLINK_CORESIGHT_WriteAPDPReg(AP reg 0x03, 0x4F010001)
T22A4 000:731.935 - 0.240ms returns 0
T22A4 000:731.965 JLINK_CORESIGHT_WriteAPDPReg(AP reg 0x00, 0x80000002)
T22A4 000:732.221 - 0.256ms returns 0
T22A4 000:732.248 JLINK_CORESIGHT_WriteAPDPReg(AP reg 0x01, 0x80011140)
T22A4 000:732.478 - 0.230ms returns 0
T22A4 000:732.505 JLINK_CORESIGHT_ReadAPDPReg(AP reg 0x03)
T22A4 000:732.803   Value=0x00000002
T22A4 000:732.838 - 0.333ms returns 0
T22A4 000:732.862 JLINK_CORESIGHT_WriteAPDPReg(AP reg 0x00, 0x80000002)
T22A4 000:733.093 - 0.230ms returns 0
T22A4 000:733.119 JLINK_CORESIGHT_WriteAPDPReg(AP reg 0x01, 0x80011120)
T22A4 000:733.349 - 0.229ms returns 0
T22A4 000:733.375 JLINK_CORESIGHT_WriteAPDPReg(AP reg 0x03, 0x000003B0)
T22A4 000:733.649 - 0.273ms returns 0
T22A4 000:733.683 JLINK_CORESIGHT_WriteAPDPReg(AP reg 0x00, 0x80000002)
T22A4 000:733.921 - 0.237ms returns 0
T22A4 000:733.949 JLINK_CORESIGHT_WriteAPDPReg(AP reg 0x01, 0x80011140)
T22A4 000:734.172 - 0.223ms returns 0
T22A4 000:734.202 JLINK_CORESIGHT_ReadAPDPReg(AP reg 0x03)
T22A4 000:734.475   Value=0x00000002
T22A4 000:734.513 - 0.311ms returns 0
T22A4 000:734.539 JLINK_CORESIGHT_ReadAPDPReg(AP reg 0x03)
T22A4 000:734.817   Value=0x00000002
T22A4 000:734.862 - 0.323ms returns 0
T22A4 000:734.888 JLINK_CORESIGHT_ReadAPDPReg(AP reg 0x03)
T22A4 000:735.186   Value=0x00000002
T22A4 000:735.225 - 0.337ms returns 0
T22A4 000:735.250 JLINK_CORESIGHT_ReadAPDPReg(AP reg 0x03)
T22A4 000:735.535   Value=0x00000002
T22A4 000:735.570 - 0.320ms returns 0
T22A4 000:735.593 JLINK_CORESIGHT_ReadAPDPReg(AP reg 0x03)
T22A4 000:735.888   Value=0x00000002
T22A4 000:735.923 - 0.330ms returns 0
T22A4 000:735.946 JLINK_CORESIGHT_ReadAPDPReg(AP reg 0x03)
T22A4 000:736.226   Value=0x00000000
T22A4 000:736.263 - 0.317ms returns 0
T22A4 000:736.289 JLINK_CORESIGHT_WriteAPDPReg(AP reg 0x00, 0x80000002)
T22A4 000:736.521 - 0.231ms returns 0
T22A4 000:736.548 JLINK_CORESIGHT_WriteAPDPReg(AP reg 0x01, 0x80011130)
T22A4 000:736.782 - 0.233ms returns 0
T22A4 000:736.808 JLINK_CORESIGHT_ReadAPDPReg(AP reg 0x03)
T22A4 000:737.095   Value=0x4F0B0081
T22A4 000:737.132 - 0.323ms returns 0
T22A4 000:737.155 JLINK_CORESIGHT_WriteAPDPReg(AP reg 0x00, 0x80000002)
T22A4 000:737.386 - 0.231ms returns 0
T22A4 000:737.414 JLINK_CORESIGHT_WriteAPDPReg(AP reg 0x01, 0x80011140)
T22A4 000:737.658 - 0.244ms returns 0
T22A4 000:737.688 JLINK_CORESIGHT_ReadAPDPReg(AP reg 0x03)
T22A4 000:737.972   Value=0x00000000
T22A4 000:738.013 - 0.324ms returns 0
T22A4 000:738.039 JLINK_CORESIGHT_WriteAPDPReg(AP reg 0x00, 0x80000002)
T22A4 000:738.272 - 0.233ms returns 0
T22A4 000:738.299 JLINK_CORESIGHT_WriteAPDPReg(AP reg 0x01, 0x80011130)
T22A4 000:738.529 - 0.230ms returns 0
T22A4 000:738.555 JLINK_CORESIGHT_ReadAPDPReg(AP reg 0x03)
T22A4 000:738.852   Value=0xE0020000
T22A4 000:738.911 - 0.355ms returns 0
T22A4 000:738.936 JLINK_CORESIGHT_WriteAPDPReg(AP reg 0x00, 0x80000002)
T22A4 000:739.176 - 0.240ms returns 0
T22A4 000:739.211 JLINK_CORESIGHT_WriteAPDPReg(AP reg 0x01, 0x80011140)
T22A4 000:739.452 - 0.241ms returns 0
T22A4 000:739.479 JLINK_CORESIGHT_ReadAPDPReg(AP reg 0x03)
T22A4 000:739.831   Value=0x00000000
T22A4 000:739.868 - 0.389ms returns 0
T22A4 000:739.895 JLINK_CORESIGHT_WriteAPDPReg(AP reg 0x00, 0x80000002)
T22A4 000:740.121 - 0.227ms returns 0
T22A4 000:740.147 JLINK_CORESIGHT_WriteAPDPReg(AP reg 0x01, 0x80011130)
T22A4 000:740.408 - 0.260ms returns 0
T22A4 000:740.434 JLINK_CORESIGHT_ReadAPDPReg(AP reg 0x03)
T22A4 000:740.725   Value=0x00000000
T22A4 000:740.759 - 0.325ms returns 0
T22A4 000:740.782 JLINK_CORESIGHT_WriteAPDPReg(AP reg 0x00, 0x80000002)
T22A4 000:740.983 - 0.201ms returns 0
T22A4 000:741.009 JLINK_CORESIGHT_WriteAPDPReg(AP reg 0x01, 0x80011140)
T22A4 000:741.246 - 0.237ms returns 0
T22A4 000:741.273 JLINK_CORESIGHT_ReadAPDPReg(AP reg 0x03)
T22A4 000:741.683   Value=0x00000000
T22A4 000:741.718 - 0.445ms returns 0
T22A4 000:741.741 JLINK_CORESIGHT_WriteAPDPReg(AP reg 0x00, 0x80000002)
T22A4 000:741.994 - 0.253ms returns 0
T22A4 000:742.023 JLINK_CORESIGHT_WriteAPDPReg(AP reg 0x01, 0x80011130)
T22A4 000:742.283 - 0.260ms returns 0
T22A4 000:742.313 JLINK_CORESIGHT_ReadAPDPReg(AP reg 0x03)
T22A4 000:742.671   Value=0x03C40000
T22A4 000:742.706 - 0.393ms returns 0
T22A4 000:742.828 JLINK_CORESIGHT_WriteAPDPReg(AP reg 0x00, 0x80000002)
T22A4 000:743.082 - 0.254ms returns 0
T22A4 000:743.110 JLINK_CORESIGHT_WriteAPDPReg(AP reg 0x01, 0x80011140)
T22A4 000:743.347 - 0.237ms returns 0
T22A4 000:743.373 JLINK_CORESIGHT_ReadAPDPReg(AP reg 0x03)
T22A4 000:743.649   Value=0x00000002
T22A4 000:743.683 - 0.310ms returns 0
T22A4 000:743.707 JLINK_CORESIGHT_WriteAPDPReg(AP reg 0x00, 0x80000002)
T22A4 000:743.939 - 0.231ms returns 0
T22A4 000:743.965 JLINK_CORESIGHT_WriteAPDPReg(AP reg 0x01, 0x80011120)
T22A4 000:744.196 - 0.230ms returns 0
T22A4 000:744.220 JLINK_CORESIGHT_WriteAPDPReg(AP reg 0x03, 0x2C010001)
T22A4 000:744.445 - 0.225ms returns 0
T22A4 000:744.470 JLINK_CORESIGHT_WriteAPDPReg(AP reg 0x00, 0x80000002)
T22A4 000:744.700 - 0.230ms returns 0
T22A4 000:744.725 JLINK_CORESIGHT_WriteAPDPReg(AP reg 0x01, 0x80011140)
T22A4 000:744.971 - 0.246ms returns 0
T22A4 000:745.001 JLINK_CORESIGHT_ReadAPDPReg(AP reg 0x03)
T22A4 000:745.291   Value=0x00000002
T22A4 000:745.326 - 0.324ms returns 0
T22A4 000:745.352 JLINK_CORESIGHT_WriteAPDPReg(AP reg 0x00, 0x80000002)
T22A4 000:745.649 - 0.297ms returns 0
T22A4 000:745.678 JLINK_CORESIGHT_WriteAPDPReg(AP reg 0x01, 0x80011120)
T22A4 000:745.921 - 0.243ms returns 0
T22A4 000:745.950 JLINK_CORESIGHT_WriteAPDPReg(AP reg 0x03, 0x000003D3)
T22A4 000:746.170 - 0.221ms returns 0
T22A4 000:746.199 JLINK_CORESIGHT_WriteAPDPReg(AP reg 0x00, 0x80000002)
T22A4 000:746.420 - 0.221ms returns 0
T22A4 000:746.449 JLINK_CORESIGHT_WriteAPDPReg(AP reg 0x01, 0x80011140)
T22A4 000:746.675 - 0.226ms returns 0
T22A4 000:746.704 JLINK_CORESIGHT_ReadAPDPReg(AP reg 0x03)
T22A4 000:747.008   Value=0x00000002
T22A4 000:747.068 - 0.364ms returns 0
T22A4 000:747.096 JLINK_CORESIGHT_ReadAPDPReg(AP reg 0x03)
T22A4 000:747.461   Value=0x00000002
T22A4 000:747.513 - 0.416ms returns 0
T22A4 000:747.543 JLINK_CORESIGHT_ReadAPDPReg(AP reg 0x03)
T22A4 000:747.849   Value=0x00000000
T22A4 000:747.901 - 0.358ms returns 0
T22A4 000:747.930 JLINK_CORESIGHT_WriteAPDPReg(AP reg 0x00, 0x80000002)
T22A4 000:748.173 - 0.243ms returns 0
T22A4 000:748.213 JLINK_CORESIGHT_WriteAPDPReg(AP reg 0x01, 0x80011130)
T22A4 000:748.447 - 0.234ms returns 0
T22A4 000:748.479 JLINK_CORESIGHT_ReadAPDPReg(AP reg 0x03)
T22A4 000:748.750   Value=0x2C020081
T22A4 000:748.788 - 0.310ms returns 0
T22A4 000:748.815 JLINK_CORESIGHT_WriteAPDPReg(AP reg 0x00, 0x80000002)
T22A4 000:749.182 - 0.367ms returns 0
T22A4 000:749.212 JLINK_CORESIGHT_WriteAPDPReg(AP reg 0x01, 0x80011140)
T22A4 000:749.444 - 0.231ms returns 0
T22A4 000:749.473 JLINK_CORESIGHT_ReadAPDPReg(AP reg 0x03)
T22A4 000:749.750   Value=0x00000000
T22A4 000:749.786 - 0.312ms returns 0
T22A4 000:749.812 JLINK_CORESIGHT_WriteAPDPReg(AP reg 0x00, 0x80000002)
T22A4 000:750.182 - 0.370ms returns 0
T22A4 000:750.211 JLINK_CORESIGHT_WriteAPDPReg(AP reg 0x01, 0x80011130)
T22A4 000:750.447 - 0.236ms returns 0
T22A4 000:750.484 JLINK_CORESIGHT_ReadAPDPReg(AP reg 0x03)
T22A4 000:750.782   Value=0x0003CE04
T22A4 000:750.821 - 0.337ms returns 0
T22A4 000:751.539 JLINK_CORESIGHT_WriteAPDPReg(AP reg 0x00, 0x80000002)
T22A4 000:751.813 - 0.274ms returns 0
T22A4 000:751.847 JLINK_CORESIGHT_WriteAPDPReg(AP reg 0x01, 0x80011140)
T22A4 000:752.077 - 0.231ms returns 0
T22A4 000:752.105 JLINK_CORESIGHT_ReadAPDPReg(AP reg 0x03)
T22A4 000:752.396   Value=0x00000002
T22A4 000:752.431 - 0.326ms returns 0
T22A4 000:752.455 JLINK_CORESIGHT_WriteAPDPReg(AP reg 0x00, 0x80000002)
T22A4 000:752.675 - 0.219ms returns 0
T22A4 000:752.702 JLINK_CORESIGHT_WriteAPDPReg(AP reg 0x01, 0x80011120)
T22A4 000:752.946 - 0.244ms returns 0
T22A4 000:752.974 JLINK_CORESIGHT_WriteAPDPReg(AP reg 0x03, 0x73010001)
T22A4 000:753.197 - 0.223ms returns 0
T22A4 000:753.225 JLINK_CORESIGHT_WriteAPDPReg(AP reg 0x00, 0x80000002)
T22A4 000:753.450 - 0.224ms returns 0
T22A4 000:753.480 JLINK_CORESIGHT_WriteAPDPReg(AP reg 0x01, 0x80011140)
T22A4 000:753.782 - 0.302ms returns 0
T22A4 000:753.811 JLINK_CORESIGHT_ReadAPDPReg(AP reg 0x03)
T22A4 000:754.071   Value=0x00000002
T22A4 000:754.106 - 0.295ms returns 0
T22A4 000:754.131 JLINK_CORESIGHT_WriteAPDPReg(AP reg 0x00, 0x80000002)
T22A4 000:754.360 - 0.228ms returns 0
T22A4 000:754.385 JLINK_CORESIGHT_WriteAPDPReg(AP reg 0x01, 0x80011120)
T22A4 000:754.649 - 0.263ms returns 0
T22A4 000:754.675 JLINK_CORESIGHT_WriteAPDPReg(AP reg 0x03, 0x0000038C)
T22A4 000:754.903 - 0.228ms returns 0
T22A4 000:754.929 JLINK_CORESIGHT_WriteAPDPReg(AP reg 0x00, 0x80000002)
T22A4 000:755.170 - 0.241ms returns 0
T22A4 000:755.197 JLINK_CORESIGHT_WriteAPDPReg(AP reg 0x01, 0x80011140)
T22A4 000:755.421 - 0.224ms returns 0
T22A4 000:755.447 JLINK_CORESIGHT_ReadAPDPReg(AP reg 0x03)
T22A4 000:755.725   Value=0x00000002
T22A4 000:755.760 - 0.312ms returns 0
T22A4 000:755.782 JLINK_CORESIGHT_ReadAPDPReg(AP reg 0x03)
T22A4 000:756.076   Value=0x00000002
T22A4 000:756.116 - 0.334ms returns 0
T22A4 000:756.139 JLINK_CORESIGHT_ReadAPDPReg(AP reg 0x03)
T22A4 000:756.397   Value=0x00000000
T22A4 000:756.431 - 0.292ms returns 0
T22A4 000:756.455 JLINK_CORESIGHT_WriteAPDPReg(AP reg 0x00, 0x80000002)
T22A4 000:756.675 - 0.220ms returns 0
T22A4 000:756.702 JLINK_CORESIGHT_WriteAPDPReg(AP reg 0x01, 0x80011130)
T22A4 000:756.947 - 0.244ms returns 0
T22A4 000:756.973 JLINK_CORESIGHT_ReadAPDPReg(AP reg 0x03)
T22A4 000:757.247   Value=0x73020081
T22A4 000:757.283 - 0.310ms returns 0
T22A4 000:757.308 JLINK_CORESIGHT_WriteAPDPReg(AP reg 0x00, 0x80000002)
T22A4 000:757.703 - 0.395ms returns 0
T22A4 000:757.730 JLINK_CORESIGHT_WriteAPDPReg(AP reg 0x01, 0x80011140)
T22A4 000:757.959 - 0.229ms returns 0
T22A4 000:757.986 JLINK_CORESIGHT_ReadAPDPReg(AP reg 0x03)
T22A4 000:758.270   Value=0x00000000
T22A4 000:758.305 - 0.319ms returns 0
T22A4 000:758.329 JLINK_CORESIGHT_WriteAPDPReg(AP reg 0x00, 0x80000002)
T22A4 000:758.565 - 0.236ms returns 0
T22A4 000:758.592 JLINK_CORESIGHT_WriteAPDPReg(AP reg 0x01, 0x80011130)
T22A4 000:758.823 - 0.230ms returns 0
T22A4 000:758.850 JLINK_CORESIGHT_ReadAPDPReg(AP reg 0x03)
T22A4 000:759.151   Value=0x00038902
T22A4 000:759.186 - 0.335ms returns 0
T22A4 000:759.212 JLINK_CORESIGHT_WriteAPDPReg(AP reg 0x00, 0x80000002)
T22A4 000:759.467 - 0.255ms returns 0
T22A4 000:759.499 JLINK_CORESIGHT_WriteAPDPReg(AP reg 0x01, 0x80011140)
T22A4 000:759.782 - 0.282ms returns 0
T22A4 000:759.810 JLINK_CORESIGHT_ReadAPDPReg(AP reg 0x03)
T22A4 000:760.095   Value=0x00000002
T22A4 000:760.132 - 0.322ms returns 0
T22A4 000:760.156 JLINK_CORESIGHT_WriteAPDPReg(AP reg 0x00, 0x80000002)
T22A4 000:760.407 - 0.251ms returns 0
T22A4 000:760.434 JLINK_CORESIGHT_WriteAPDPReg(AP reg 0x01, 0x80011120)
T22A4 000:760.649 - 0.215ms returns 0
T22A4 000:760.675 JLINK_CORESIGHT_WriteAPDPReg(AP reg 0x03, 0x75010001)
T22A4 000:760.896 - 0.221ms returns 0
T22A4 000:760.923 JLINK_CORESIGHT_WriteAPDPReg(AP reg 0x00, 0x80000002)
T22A4 000:761.147 - 0.224ms returns 0
T22A4 000:761.173 JLINK_CORESIGHT_WriteAPDPReg(AP reg 0x01, 0x80011140)
T22A4 000:761.396 - 0.223ms returns 0
T22A4 000:761.422 JLINK_CORESIGHT_ReadAPDPReg(AP reg 0x03)
T22A4 000:761.699   Value=0x00000002
T22A4 000:761.735 - 0.312ms returns 0
T22A4 000:761.759 JLINK_CORESIGHT_WriteAPDPReg(AP reg 0x00, 0x80000002)
T22A4 000:761.991 - 0.231ms returns 0
T22A4 000:762.017 JLINK_CORESIGHT_WriteAPDPReg(AP reg 0x01, 0x80011120)
T22A4 000:762.248 - 0.230ms returns 0
T22A4 000:762.274 JLINK_CORESIGHT_WriteAPDPReg(AP reg 0x03, 0x0000038A)
T22A4 000:762.529 - 0.254ms returns 0
T22A4 000:762.556 JLINK_CORESIGHT_WriteAPDPReg(AP reg 0x00, 0x80000002)
T22A4 000:762.846 - 0.289ms returns 0
T22A4 000:762.905 JLINK_CORESIGHT_WriteAPDPReg(AP reg 0x01, 0x80011140)
T22A4 000:763.174 - 0.270ms returns 0
T22A4 000:763.217 JLINK_CORESIGHT_ReadAPDPReg(AP reg 0x03)
T22A4 000:763.504   Value=0x00000000
T22A4 000:763.541 - 0.324ms returns 0
T22A4 000:763.564 JLINK_CORESIGHT_WriteAPDPReg(AP reg 0x00, 0x80000002)
T22A4 000:763.803 - 0.238ms returns 0
T22A4 000:763.829 JLINK_CORESIGHT_WriteAPDPReg(AP reg 0x01, 0x80011130)
T22A4 000:764.046 - 0.216ms returns 0
T22A4 000:764.072 JLINK_CORESIGHT_ReadAPDPReg(AP reg 0x03)
T22A4 000:764.345   Value=0x75020081
T22A4 000:764.380 - 0.307ms returns 0
T22A4 000:764.404 JLINK_CORESIGHT_WriteAPDPReg(AP reg 0x00, 0x80000002)
T22A4 000:764.649 - 0.245ms returns 0
T22A4 000:764.675 JLINK_CORESIGHT_WriteAPDPReg(AP reg 0x01, 0x80011140)
T22A4 000:764.921 - 0.245ms returns 0
T22A4 000:764.947 JLINK_CORESIGHT_ReadAPDPReg(AP reg 0x03)
T22A4 000:765.221   Value=0x00000000
T22A4 000:765.256 - 0.309ms returns 0
T22A4 000:765.280 JLINK_CORESIGHT_WriteAPDPReg(AP reg 0x00, 0x80000002)
T22A4 000:765.511 - 0.231ms returns 0
T22A4 000:765.538 JLINK_CORESIGHT_WriteAPDPReg(AP reg 0x01, 0x80011130)
T22A4 000:765.794 - 0.255ms returns 0
T22A4 000:765.819 JLINK_CORESIGHT_ReadAPDPReg(AP reg 0x03)
T22A4 000:766.102   Value=0x00038702
T22A4 000:766.137 - 0.317ms returns 0
T22A4 000:766.165 JLINK_CORESIGHT_WriteAPDPReg(AP reg 0x00, 0x80000002)
T22A4 000:766.393 - 0.228ms returns 0
T22A4 000:766.419 JLINK_CORESIGHT_WriteAPDPReg(AP reg 0x01, 0x80011140)
T22A4 000:766.649 - 0.229ms returns 0
T22A4 000:766.678 JLINK_CORESIGHT_ReadAPDPReg(AP reg 0x03)
T22A4 000:766.971   Value=0x00000002
T22A4 000:767.006 - 0.328ms returns 0
T22A4 000:767.030 JLINK_CORESIGHT_WriteAPDPReg(AP reg 0x00, 0x80000002)
T22A4 000:767.256 - 0.225ms returns 0
T22A4 000:767.282 JLINK_CORESIGHT_WriteAPDPReg(AP reg 0x01, 0x80011120)
T22A4 000:767.512 - 0.230ms returns 0
T22A4 000:767.538 JLINK_CORESIGHT_WriteAPDPReg(AP reg 0x03, 0x4E0B0001)
T22A4 000:767.781 - 0.243ms returns 0
T22A4 000:767.807 JLINK_CORESIGHT_WriteAPDPReg(AP reg 0x00, 0x80000002)
T22A4 000:768.052 - 0.245ms returns 0
T22A4 000:768.081 JLINK_CORESIGHT_WriteAPDPReg(AP reg 0x01, 0x80011140)
T22A4 000:768.320 - 0.239ms returns 0
T22A4 000:768.346 JLINK_CORESIGHT_ReadAPDPReg(AP reg 0x03)
T22A4 000:768.649   Value=0x00000002
T22A4 000:768.684 - 0.337ms returns 0
T22A4 000:768.711 JLINK_CORESIGHT_WriteAPDPReg(AP reg 0x00, 0x80000002)
T22A4 000:768.958 - 0.247ms returns 0
T22A4 000:768.985 JLINK_CORESIGHT_WriteAPDPReg(AP reg 0x01, 0x80011120)
T22A4 000:769.221 - 0.236ms returns 0
T22A4 000:769.248 JLINK_CORESIGHT_WriteAPDPReg(AP reg 0x03, 0x80020000)
T22A4 000:769.482 - 0.234ms returns 0
T22A4 000:769.510 JLINK_CORESIGHT_WriteAPDPReg(AP reg 0x00, 0x80000002)
T22A4 000:769.776 - 0.266ms returns 0
T22A4 000:769.803 JLINK_CORESIGHT_WriteAPDPReg(AP reg 0x01, 0x80011140)
T22A4 000:770.023 - 0.219ms returns 0
T22A4 000:770.072 JLINK_CORESIGHT_ReadAPDPReg(AP reg 0x03)
T22A4 000:770.359   Value=0x00000002
T22A4 000:770.397 - 0.325ms returns 0
T22A4 000:770.420 JLINK_CORESIGHT_WriteAPDPReg(AP reg 0x00, 0x80000002)
T22A4 000:770.649 - 0.228ms returns 0
T22A4 000:770.677 JLINK_CORESIGHT_WriteAPDPReg(AP reg 0x01, 0x80011120)
T22A4 000:770.921 - 0.243ms returns 0
T22A4 000:770.953 JLINK_CORESIGHT_WriteAPDPReg(AP reg 0x03, 0x00000000)
T22A4 000:771.197 - 0.243ms returns 0
T22A4 000:771.226 JLINK_CORESIGHT_WriteAPDPReg(AP reg 0x00, 0x80000002)
T22A4 000:771.447 - 0.221ms returns 0
T22A4 000:771.476 JLINK_CORESIGHT_WriteAPDPReg(AP reg 0x01, 0x80011140)
T22A4 000:771.816 - 0.339ms returns 0
T22A4 000:771.879 JLINK_CORESIGHT_ReadAPDPReg(AP reg 0x03)
T22A4 000:772.218   Value=0x00000002
T22A4 000:772.268 - 0.389ms returns 0
T22A4 000:772.295 JLINK_CORESIGHT_WriteAPDPReg(AP reg 0x00, 0x80000002)
T22A4 000:772.586 - 0.290ms returns 0
T22A4 000:772.649 JLINK_CORESIGHT_WriteAPDPReg(AP reg 0x01, 0x80011120)
T22A4 000:772.926 - 0.278ms returns 0
T22A4 000:772.969 JLINK_CORESIGHT_WriteAPDPReg(AP reg 0x03, 0x03250000)
T22A4 000:773.217 - 0.247ms returns 0
T22A4 000:773.258 JLINK_CORESIGHT_WriteAPDPReg(AP reg 0x00, 0x80000002)
T22A4 000:773.501 - 0.242ms returns 0
T22A4 000:773.529 JLINK_CORESIGHT_WriteAPDPReg(AP reg 0x01, 0x80011140)
T22A4 000:773.783 - 0.254ms returns 0
T22A4 000:773.810 JLINK_CORESIGHT_ReadAPDPReg(AP reg 0x03)
T22A4 000:774.096   Value=0x00000002
T22A4 000:774.134 - 0.323ms returns 0
